# 雷码 LM1000H 说明书参数与调用逻辑梳理（面向 ILoopTrackManager 接入）

> 文档来源：`Zeye.NarrowBeltSorter.Drivers/Vendors/LeiMa/doc/2-LM1000H 说明书.pdf`  
> 说明：本文仅保留可在该 PDF 原文定位的参数与调用逻辑。

## 1. 参数组与章节定位（便于实现期快速检索）

- 参数组目录包含：P0、P1、P2、P3、P4、P5、P6、P7、P8、P9、PA、Pb、PC、Pd（目录页可定位对应起始页）。  
  来源：PDF 第 3 页（目录）。
- 故障章节为“7.1 故障代码描述及对策”。  
  来源：PDF 第 3 页（目录）。
- 通讯协议章节在附录，包含 RS485/Modbus-RTU、通讯地址与命令帧说明。  
  来源：PDF 第 158～169 页附近（附录通讯协议部分）。

## 2. 接入 ILoopTrackManager 的最小必配参数

| 参数 | 含义 | 推荐值/约束 | 来源 |
|---|---|---|---|
| P0.01 | 运行命令选择 | 需要上位机控制时设为 `2=RS485 通讯` | PDF 第 35 页参数表；第 164 页通讯控制说明 |
| P0.03 | 主频率选择 | 频率由通讯给定时设为 `9=RS485 通讯` | PDF 第 35 页参数表；第 69 页参数说明 |
| P0.04 | 最大输出频率 | 50.00Hz～3000.00Hz，作为百分比量纲换算基准 | PDF 第 35 页参数表；第 69 页参数说明 |
| Pd.00 | 通讯协议选择 | `0=MODBUS` | PDF 第 59 页参数表；第 133 页参数说明 |
| Pd.01 | 波特率 | 上位机与驱动器必须一致，否则无法通讯 | PDF 第 59 页参数表；第 133 页参数说明 |
| Pd.02 | 数据格式 | 上位机与驱动器必须一致，否则无法通讯 | PDF 第 59 页参数表；第 133 页参数说明 |
| Pd.03 | 从站地址 | 1～247；0 为广播地址；点对点地址需唯一 | PDF 第 59 页参数表；第 133 页与第 166 页说明 |
| Pd.05 | 通讯超时 | >0 且超时将报 E024；连续通讯场景可用于链路监测 | PDF 第 59 页参数表；第 133 页参数说明 |

## 3. 面向管理器方法的调用映射

### 3.0 频率与线速度换算口径（Hz -> mm/s）

- 依据说明书监控参数 `C0.26` 口径：`线速度(m/s) = 频率(Hz) ÷ 10`。  
- 将 m/s 换算为 mm/s（mms）：`1 m/s = 1000 mm/s`。  
- 因此：`线速度(mm/s) = 频率(Hz) × 100`。  
- 反向换算：`频率(Hz) = 线速度(mm/s) ÷ 100`。  
- 示例：  
  - `15.00 Hz -> 1.50 m/s -> 1500 mm/s`  
  - `2000 mm/s -> 2.00 m/s -> 20.00 Hz`  

来源：PDF 第 166 页（C0.26 监控项定义口径）。

### 3.1 建链（ConnectAsync）

1. 确认驱动器通讯前置条件：`Pd.00/Pd.01/Pd.02/Pd.03` 与上位机一致。  
2. 使用 RS485 半双工 Modbus-RTU 主从模式接入。  
3. 建链后执行一次读状态确认：  
   - 运行状态地址：`3000H`（1 正转 / 2 反转 / 3 停机）  
   - 故障代码地址：`3100H`（按 PC.13 故障码定义解释）  

来源：PDF 第 133 页（Pd 参数说明）；第 161～166 页（通讯协议与地址定义）。

### 3.2 启停（StartAsync / StopAsync / ClearAlarmAsync）

- 运行命令通讯地址：`2000H`。  
  - `1`：正转运行  
  - `2`：反转运行  
  - `5`：减速停机  
  - `6`：自由停机  
  - `7`：故障复位（可用于清故障）  

来源：PDF 第 161～164 页（通讯控制命令表）。

### 3.3 速度给定（SetTargetSpeedAsync）

- 通讯设定值地址：`4000H`，数据范围 `-10000～10000`，对应 `-100.00%～100.00%`。  
- 频率量纲百分比相对于 `P0.04 最大输出频率`。  
- 当命令源为通讯（P0.01=2）且频率源为通讯（P0.03=9）时，上位机可通过通讯给定驱动器速度目标。  

来源：PDF 第 69 页（通讯给定说明）；第 161～164 页（通讯设定值地址与量纲说明）。

### 3.4 运行中轮询（用于状态事件发布）

建议周期读取以下地址并映射到管理器事件：

- `3000H`：运行状态（正转/反转/停机）。  
- `3100H`：当前故障代码（结合 PC.13 故障码表）。  
- 需要监控量时可读 C 组参数（示例：`C0.11 -> 500BH`）。  

来源：PDF 第 161～164 页（状态数据与 C 组地址规则）；第 129 页与第 145 页附近（PC 故障相关与故障章节目录）。

## 4. 调试顺序（与现场联调一致）

说明书调试流程可归纳为：

1. 设置运行命令选择（P0.01）与频率源选择（P0.03）。  
2. 根据命令源/频率源设置对应输入功能。  
3. 设置启动、停止过程控制功能。  
4. 设置输出信号相关功能。  
5. 空载试运行，确认运行方向与状态。  

来源：PDF 第 34 页（试运行流程图文字说明）。

## 5. 影响软件调用生效的硬件前置约束

- 输入侧：R/S/T 接输入电源，输入侧无相序要求。  
- 输出侧：U/V/W 仅接电机，禁止将电源接到 U/V/W。  
- 制动电阻：必须接 P+、PB，不能接 P+、P-。  
- 接地：必须可靠接地，接地阻值小于 10 欧姆。  

来源：PDF 第 1 页安全提示；第 20 页接线与注意事项。

## 6. 故障处理与管理器告警映射要点

- 通讯异常故障码：`E024`，排查项包含上位机、通讯线、通讯参数组。  
- 当 `Pd.05` 设置为有效值时，通讯间隔超时可触发通讯故障。  
- 可通过 `2000H=7` 执行故障复位；复位后再次读取 `3100H` 校验故障是否清除。  

来源：PDF 第 133 页（Pd.05）；第 148～151 页（E024 对策）；第 161～164 页（控制命令与故障读取地址）。

## 7. 测试工具可直接验证的 Modbus-RTU 指令（含逐字节分解）

> 适用前提：`P0.01=2`、`P0.03=9`、`Pd.00=0`，且 `Pd.01/Pd.02/Pd.03` 与上位机一致。  
> 帧结构依据：RTU 帧字段（从机地址 ADR、命令码 CMD、地址、数据、CRC 低字节在前）。  
> 来源：PDF 第 166～168 页（A.4 通讯资料结构、命令码定义、控制/状态/故障地址定义）。

### 7.1 通用帧字段与每字节含义

以“读取运行状态 3000H”请求帧 `01 03 30 00 00 01 8B 0A` 为例：

| 字节序号 | 字节值 | 含义 |
|---|---|---|
| Byte0 | `01` | 从站地址（ADR=1） |
| Byte1 | `03` | 命令码 CMD，`03=读参数` |
| Byte2 | `30` | 地址高字节，`3000H` 的高字节 |
| Byte3 | `00` | 地址低字节，`3000H` 的低字节 |
| Byte4 | `00` | 读取数量高字节（读取 1 个字） |
| Byte5 | `01` | 读取数量低字节 |
| Byte6 | `8B` | CRC16 低字节（CRC CHK Low） |
| Byte7 | `0A` | CRC16 高字节（CRC CHK High） |

说明：PDF 明确 CRC 发送顺序为“低字节在前，高字节在后”。来源：PDF 第 167～168 页。

### 7.2 指令清单（可直接粘贴到测试工具十六进制发送）

以下示例从站地址统一使用 `01`，可按现场 `Pd.03` 替换首字节并重算 CRC。

1) 读取运行状态（地址 `3000H`）  
请求帧：`01 03 30 00 00 01 8B 0A`

2) 读取当前故障码（地址 `3100H`）  
请求帧：`01 03 31 00 00 01 8A F6`

3) 下发正转运行命令（地址 `2000H`，值 `0001`）  
请求帧：`01 06 20 00 00 01 43 CA`

4) 下发减速停机命令（地址 `2000H`，值 `0005`）  
请求帧：`01 06 20 00 00 05 42 09`

5) 下发故障复位命令（地址 `2000H`，值 `0007`）  
请求帧：`01 06 20 00 00 07 C3 C8`

6) 写入通讯设定值 50.00%（地址 `4000H`，值 `1388H`=十进制 5000）  
请求帧：`01 06 40 00 13 88 91 5C`

相关原文依据：  
- `03`/`06` 命令码定义：PDF 第 166～167 页。  
- `2000H/3000H/3100H/4000H` 地址含义：PDF 第 161～168 页。  
- 通讯设定值范围 `-10000～10000` 对应 `-100.00%～100.00%`：PDF 第 161、167 页。

### 7.2.1 启动、停止、写速度、读实时速度、读异常码（最小联调闭环）

下面给出可直接按顺序执行的“最小闭环”：

1. 启动（正转运行）  
   - 指令：`01 06 20 00 00 01 43 CA`  
   - 含义：向 `2000H` 写入 `0001`（正转运行）。

2. 写速度（通讯设定值 50.00%）  
   - 指令：`01 06 40 00 13 88 91 5C`  
   - 含义：向 `4000H` 写入 `5000`（即 50.00%）。  
   - 说明：频率量纲时该百分比相对 `P0.04`。

3. 读实时速度（至少读 1 项，建议读 2～3 项交叉验证）  
   - 读运行频率（C0.00 / `5000H`）：`01 03 50 00 00 01 95 0A`  
   - 读线速度（C0.10 / `5010H`）：`01 03 50 10 00 01 94 CF`  
   - 读编码器反馈速度（C0.26 / `501AH`）：`01 03 50 1A 00 01 B4 CD`

4. 读异常码  
   - 指令：`01 03 31 00 00 01 8A F6`  
   - 含义：读取 `3100H` 当前故障信息。

5. 停止  
   - 减速停机：`01 06 20 00 00 05 42 09`  
   - 自由停机：`01 06 20 00 00 06 02 08`

6. （可选）故障复位  
   - 指令：`01 06 20 00 00 07 C3 C8`  
   - 含义：向 `2000H` 写入 `0007`。

来源：PDF 第 161～168 页（命令地址、状态地址、故障地址、C 组监视地址定义）。

### 7.2.2 “读实时速度”判读口径建议

- `5000H`（运行频率）优先用于闭环控制判读。  
- `5010H`（线速度）可直接反映输送线速度。  
- `501AH`（编码器反馈速度）可用于验证编码器链路与速度一致性。  

三者建议并行采集，便于在 `ILoopTrackManager` 中区分“给定已下发”与“机械侧真实达到”。

来源：PDF 第 166 页（C 组监控地址映射表）。

### 7.3 响应帧判读（测试工具联调时直接对照）

1) 读运行状态 `3000H` 的正常响应格式：  
`01 03 02 00 XX CRC_L CRC_H`  
- `XX` 可能值：`01=正转`、`02=反转`、`03=停机`。  
来源：PDF 第 167 页（状态字定义）。

2) 读故障码 `3100H` 的正常响应格式：  
`01 03 02 00 YY CRC_L CRC_H`  
- `YY` 示例：`18` 对应 `E024 通讯故障`。  
来源：PDF 第 168 页（故障信息映射表）。

3) 写单寄存器（功能码 `06`）的正常响应：  
从站会回显请求帧地址与数据（即请求与响应主体一致）。  
来源：PDF 第 166～167 页（主站写命令帧 / 从站写应答帧）。

4) 读 C 组速度相关监控（功能码 `03`）的正常响应：  
`01 03 02 Data_H Data_L CRC_L CRC_H`  
- `Data_H Data_L` 为对应监控项的 16 位值（量纲按手册监控项定义解释）。  
来源：PDF 第 166～167 页（读应答帧结构）与第 166 页（C 组地址表）。

### 7.5 常见异常码意义速查（联调高频）

通过 `3100H` 读取到的值可按下表解释（节选高频项）：

| 返回值 | 故障码 | 含义 |
|---|---|---|
| `0000` | - | 无故障 |
| `0001` | E001 | 加速过流 |
| `000E` | E014 | 变频器过载 |
| `0010` | E016 | 模块过热 |
| `0015` | E021 | 电流检测故障 |
| `0016` | E022 | 电机过热故障 |
| `0018` | E024 | 通讯故障 |

来源：PDF 第 168 页（故障信息地址 `3100H` 对应表）。

### 7.4 CRC 校验说明（用于测试工具“自动CRC”核对）

- CRC 初值：`0xFFFF`。  
- 多项式：`0xA001`。  
- 每字节逐位处理；发送时 CRC 低字节在前、高字节在后。  

来源：PDF 第 167～168 页 CRC 校验函数说明。

## 8. 多站点（多变频器）联调处理

### 8.1 地址规划与参数约束

- 多台变频器共用同一条 RS485 总线时，每台设备 `Pd.03` 必须唯一（范围 1～247）。  
- `Pd.01`（波特率）与 `Pd.02`（数据格式）在同一总线上必须保持一致。  
- 地址 `0` 为广播地址，只适合“同时下发命令”，不适合读取状态。  

来源：PDF 第 133 页（Pd.01/Pd.02/Pd.03）；第 166 页（通讯地址范围与广播地址说明）。

### 8.2 报文里“站号字节”怎么改

多站与单站报文结构完全相同，仅 `Byte0`（ADR）切换为目标站号，随后 CRC 需要重算。

| 目标站号 | 启动命令（2000H=0001） | 减速停机（2000H=0005） | 读状态（3000H） |
|---|---|---|---|
| 1号站 | `01 06 20 00 00 01 43 CA` | `01 06 20 00 00 05 42 09` | `01 03 30 00 00 01 8B 0A` |
| 2号站 | `02 06 20 00 00 01 43 F9` | `02 06 20 00 00 05 42 3A` | `02 03 30 00 00 01 8B 39` |
| 3号站 | `03 06 20 00 00 01 42 28` | `03 06 20 00 00 05 43 EB` | `03 03 30 00 00 01 8A E8` |

说明：上表可直接用于测试工具十六进制发送；更换站号后务必同步更新 CRC。

### 8.3 多站“写速度 + 读实时速度 + 读异常码”示例

1) 写速度（示例）  
- 2号站写 50.00%（`4000H=1388H`）：`02 06 40 00 13 88 91 6F`  
- 3号站写 60.00%（`4000H=1770H`）：`03 06 40 00 17 70 93 FC`

2) 读实时速度（示例读运行频率 `5000H`）  
- 2号站：`02 03 50 00 00 01 95 39`  
- 3号站：`03 03 50 00 00 01 94 E8`

3) 读异常码（`3100H`）  
- 2号站：`02 03 31 00 00 01 8A C5`  
- 3号站：`03 03 31 00 00 01 8B 14`

来源：PDF 第 161～168 页（4000H/5000H/3100H 地址含义与 RTU 帧结构）。

### 8.4 轮询与控制建议（避免多站互相影响）

- 建议按站点顺序轮询：`站1 -> 站2 -> 站3 -> ...`，单次仅对一个站点发命令并等待响应。  
- 建议“控制写入”和“状态读取”分离：先写目标站控制命令，再按站点统一读取 `3000H/3100H/5000H`。  
- 故障处理按站点隔离：例如仅 2 号站读到 `3100H=0018(E024)` 时，只对 2 号站告警与复位。  
- 广播地址 `0` 可用于全线紧急停机（如 `00 06 20 00 00 05 43 D8`），但广播命令无单站响应，不可用于确认某一站状态。  

来源：PDF 第 166～168 页（地址定义、主从通讯帧、故障信息地址）。
